LTspice 24.0.12 for Windows
Circuit: * C:\Users\Sohai\Desktop\Academics\TU_Delft\Q4\ET8011_SED_MC\ET8011_SED_MC\KiCad\Active_E_Field_Probe\stage_NP_PhZ_bias\stage_1_2_bias\2_normalSF.asc
Start Time: Thu Mar 19 14:38:19 2026
Ignoring BSIM parameter XL
Ignoring BSIM parameter XW
Ignoring BSIM parameter ACM
Ignoring BSIM parameter LDIF
Ignoring BSIM parameter HDIF
Ignoring BSIM parameter CALCACM
Ignoring BSIM parameter XL
Ignoring BSIM parameter XW
Ignoring BSIM parameter ACM
Ignoring BSIM parameter LDIF
Ignoring BSIM parameter HDIF
Ignoring BSIM parameter TLEV
Ignoring BSIM parameter TLEVC
Ignoring BSIM parameter CALCACM
Ignoring BSIM parameter SFVTFLAGl
solver = Normal
Maximum thread count: 24
tnom = 27
temp = 27
method = modified trap
Warning: Pd = 0 is less than W.
Warning: Ps = 0 is less than W.
Warning: Pd = 0 is less than W.
Warning: Ps = 0 is less than W.
Warning: Pd = 0 is less than W.
Warning: Ps = 0 is less than W.
Direct Newton iteration for .op point succeeded.
Semiconductor Device Operating Points:
                        --- BSIM3 MOSFETS ---
Name:        mn1         mn2         mn3         mn4         mp1
Model:      nch.3       nch.3       nch.3       nch.3       pch.6
Id:        2.89e-04    2.89e-04    2.86e-04    2.86e-04   -1.27e-04
Vgs:       4.75e-01    4.75e-01    4.56e-01    4.56e-01   -1.21e+00
Vds:       2.50e-02    2.50e-02    9.75e-01    9.75e-01   -1.51e+00
Vbs:       0.00e+00    0.00e+00   -2.50e-02   -2.50e-02    0.00e+00
Vth:       5.12e-01    5.12e-01    5.17e-01    5.17e-01   -4.97e-01
Vdsat:     6.39e-02    6.39e-02    5.71e-02    5.71e-02   -4.84e-01
Gm:        5.08e-03    5.08e-03    5.86e-03    5.86e-03    2.74e-04
Gds:       8.68e-03    8.68e-03    1.13e-04    1.13e-04    1.10e-05
Gmb        1.53e-03    1.53e-03    1.67e-03    1.67e-03    9.52e-05
Cbd:       0.00e+00    0.00e+00    0.00e+00    0.00e+00    0.00e+00
Cbs:       0.00e+00    0.00e+00    0.00e+00    0.00e+00    0.00e+00
Cgsov:     1.05e-13    1.05e-13    5.46e-14    5.46e-14    4.82e-16
Cgdov:     1.05e-13    1.05e-13    5.46e-14    5.46e-14    4.82e-16
Cgbov:     1.27e-16    1.27e-16    1.27e-16    1.27e-16    4.83e-17
dQgdVgb:   3.72e-13    3.72e-13    1.81e-13    1.81e-13    2.84e-15
dQgdVdb:  -1.13e-13   -1.13e-13   -5.46e-14   -5.46e-14   -4.78e-16
dQgdVsb:  -1.65e-13   -1.65e-13   -7.29e-14   -7.29e-14   -2.26e-15
dQddVgb:  -1.20e-13   -1.20e-13   -5.46e-14   -5.46e-14   -4.83e-16
dQddVdb:   1.26e-13    1.26e-13    5.46e-14    5.46e-14    4.83e-16
dQddVsb:  -1.10e-15   -1.10e-15    1.35e-17    1.35e-17    5.95e-19
dQbdVgb:  -9.13e-14   -9.13e-14   -5.31e-14   -5.31e-14   -4.29e-16
dQbdVdb:  -5.70e-15   -5.70e-15    1.15e-17    1.15e-17    3.22e-19
dQbdVsb:  -1.90e-14   -1.90e-14   -5.52e-15   -5.52e-15   -1.58e-16


Total elapsed time: 0.062 seconds.

