LTspice 24.0.12 for Windows
Circuit: * C:\Users\Sohai\Desktop\Academics\TU_Delft\Q4\ET8011_SED_MC\ET8011_SED_MC\KiCad\Active_E_Field_Probe\stage_NP_PhZ_bias\stage_1_2_bias\Draft1 - Copy.asc
Start Time: Thu Mar 19 03:01:35 2026
Ignoring BSIM parameter XL
Ignoring BSIM parameter XW
Ignoring BSIM parameter ACM
Ignoring BSIM parameter LDIF
Ignoring BSIM parameter HDIF
Ignoring BSIM parameter CALCACM
Ignoring BSIM parameter XL
Ignoring BSIM parameter XW
Ignoring BSIM parameter ACM
Ignoring BSIM parameter LDIF
Ignoring BSIM parameter HDIF
Ignoring BSIM parameter CALCACM
Ignoring BSIM parameter XL
Ignoring BSIM parameter XW
Ignoring BSIM parameter ACM
Ignoring BSIM parameter LDIF
Ignoring BSIM parameter HDIF
Ignoring BSIM parameter TLEV
Ignoring BSIM parameter TLEVC
Ignoring BSIM parameter CALCACM
Ignoring BSIM parameter SFVTFLAGl
solver = Normal
Maximum thread count: 24
tnom = 27
temp = 27
method = modified trap
WARNING: Less than two connections to node vgd2_p.  This node is used by v7.
Warning: Pd = 0 is less than W.
Warning: Ps = 0 is less than W.
Warning: Pd = 0 is less than W.
Warning: Ps = 0 is less than W.
Warning: Pd = 0 is less than W.
Warning: Ps = 0 is less than W.
Direct Newton iteration for .op point succeeded.
Semiconductor Device Operating Points:
                        --- BSIM3 MOSFETS ---
Name:        mn1         mn2         mn3         mn4         mp1
Model:      nch.3       nch.3      nch.12      nch.12       pch.6
Id:        6.39e-05    6.39e-05    6.38e-05    6.38e-05   -4.50e-05
Vgs:       6.01e-01    6.01e-01    1.18e+00    1.18e+00   -8.64e-01
Vds:       2.50e-02    2.50e-02    9.75e-01    9.75e-01   -1.89e+00
Vbs:       0.00e+00    0.00e+00   -2.50e-02   -2.50e-02    0.00e+00
Vth:       5.11e-01    5.11e-01    5.20e-01    5.20e-01   -4.95e-01
Vdsat:     1.06e-01    1.06e-01    3.37e-01    3.37e-01   -2.93e-01
Gm:        5.58e-04    5.58e-04    1.13e-04    1.13e-04    2.00e-04
Gds:       2.18e-03    2.18e-03    7.07e-06    7.07e-06    3.85e-06
Gmb        1.66e-04    1.66e-04    3.15e-05    3.15e-05    6.73e-05
Cbd:       0.00e+00    0.00e+00    0.00e+00    0.00e+00    0.00e+00
Cbs:       0.00e+00    0.00e+00    0.00e+00    0.00e+00    0.00e+00
Cgsov:     4.47e-15    4.47e-15    7.33e-17    7.33e-17    4.82e-16
Cgdov:     4.47e-15    4.47e-15    7.33e-17    7.33e-17    4.82e-16
Cgbov:     3.18e-17    3.18e-17    3.18e-17    3.18e-17    4.83e-17
dQgdVgb:   2.39e-14    2.39e-14    4.11e-16    4.11e-16    2.79e-15
dQgdVdb:  -8.13e-15   -8.13e-15   -7.31e-17   -7.31e-17   -4.78e-16
dQgdVsb:  -1.41e-14   -1.41e-14   -2.69e-16   -2.69e-16   -2.18e-15
dQddVgb:  -9.97e-15   -9.97e-15   -7.39e-17   -7.39e-17   -4.82e-16
dQddVdb:   1.51e-14    1.51e-14    7.39e-17    7.39e-17    4.82e-16
dQddVsb:  -3.45e-15   -3.45e-15    2.07e-19    2.07e-19    3.43e-19
dQbdVgb:  -1.10e-15   -1.10e-15   -6.89e-17   -6.89e-17   -4.20e-16
dQbdVdb:  -3.40e-15   -3.40e-15   -3.86e-20   -3.86e-20    5.33e-19
dQbdVsb:  -1.19e-15   -1.19e-15   -5.02e-17   -5.02e-17   -1.86e-16

Name:        mp2
Model:      pch.6
Id:       -4.50e-05
Vgs:      -8.90e-01
Vds:      -8.90e-01
Vbs:       0.00e+00
Vth:      -4.99e-01
Vdsat:    -3.06e-01
Gm:        1.89e-04
Gds:       7.59e-06
Gmb        6.51e-05
Cbd:       0.00e+00
Cbs:       0.00e+00
Cgsov:     4.82e-16
Cgdov:     4.82e-16
Cgbov:     4.83e-17
dQgdVgb:   2.80e-15
dQgdVdb:  -4.78e-16
dQgdVsb:  -2.19e-15
dQddVgb:  -4.84e-16
dQddVdb:   4.84e-16
dQddVsb:   1.51e-18
dQbdVgb:  -4.21e-16
dQbdVdb:   6.39e-20
dQbdVsb:  -1.84e-16


Total elapsed time: 0.068 seconds.

